#Digilent WaveForms Logic Analyzer Acquisition
#Device Name: Discovery3
#Serial Number: SN:210415BA05A8
#Date Time: 2026-02-21 14:59:02.969.402.580
#Sample rate: 2e+07Hz
#Samples: 1024

Time (s),LE,MOSI,SCK,SPI
-7.05e-06,1,1,0,X
-7e-06,1,1,0,X
-6.95e-06,1,1,0,X
-6.9e-06,1,1,0,X
-6.85e-06,1,1,0,X
-6.8e-06,1,1,0,X
-6.75e-06,1,1,0,X
-6.7e-06,1,1,0,X
-6.65e-06,1,1,0,X
-6.6e-06,1,1,0,X
-6.55e-06,1,1,0,X
-6.5e-06,1,1,0,X
-6.45e-06,1,1,0,X
-6.4e-06,1,1,0,X
-6.35e-06,1,1,0,X
-6.3e-06,1,1,0,X
-6.25e-06,1,1,0,X
-6.2e-06,1,1,0,X
-6.15e-06,1,1,0,X
-6.1e-06,1,1,0,X
-6.05e-06,1,1,0,X
-6e-06,1,1,0,X
-5.95e-06,1,1,0,X
-5.9e-06,1,1,0,X
-5.85e-06,1,1,0,X
-5.8e-06,1,1,0,X
-5.75e-06,1,1,0,X
-5.7e-06,1,1,0,X
-5.65e-06,1,1,0,X
-5.6e-06,1,1,0,X
-5.55e-06,1,1,0,X
-5.5e-06,1,1,0,X
-5.45e-06,1,1,0,X
-5.4e-06,1,1,0,X
-5.35e-06,1,1,0,X
-5.3e-06,1,1,0,X
-5.25e-06,1,1,0,X
-5.2e-06,1,1,0,X
-5.15e-06,1,1,0,X
-5.1e-06,1,1,0,X
-5.05e-06,1,1,0,X
-5e-06,1,1,0,X
-4.95e-06,1,1,0,X
-4.9e-06,1,1,0,X
-4.85e-06,1,1,0,X
-4.8e-06,1,1,0,X
-4.75e-06,1,1,0,X
-4.7e-06,1,1,0,X
-4.65e-06,1,1,0,X
-4.6e-06,1,1,0,X
-4.55e-06,1,1,0,X
-4.5e-06,1,1,0,X
-4.45e-06,1,1,0,X
-4.4e-06,1,1,0,X
-4.35e-06,1,1,0,X
-4.3e-06,1,1,0,X
-4.25e-06,1,1,0,X
-4.2e-06,1,1,0,X
-4.15e-06,1,1,0,X
-4.1e-06,1,1,0,X
-4.05e-06,1,1,0,X
-4e-06,1,1,0,X
-3.95e-06,1,1,0,X
-3.9e-06,1,1,0,X
-3.85e-06,1,1,0,X
-3.8e-06,1,1,0,X
-3.75e-06,1,1,0,X
-3.7e-06,1,1,0,X
-3.65e-06,1,1,0,X
-3.6e-06,1,1,0,X
-3.55e-06,1,1,0,X
-3.5e-06,1,1,0,X
-3.45e-06,1,1,0,X
-3.4e-06,1,1,0,X
-3.35e-06,1,1,0,X
-3.3e-06,1,1,0,X
-3.25e-06,1,1,0,X
-3.2e-06,1,1,0,X
-3.15e-06,1,1,0,X
-3.1e-06,1,1,0,X
-3.05e-06,1,1,0,X
-3e-06,1,1,0,X
-2.95e-06,1,1,0,X
-2.9e-06,1,1,0,X
-2.85e-06,1,1,0,X
-2.8e-06,1,1,0,X
-2.75e-06,1,1,0,X
-2.7e-06,1,1,0,X
-2.65e-06,1,1,0,X
-2.6e-06,1,1,0,X
-2.55e-06,1,1,0,X
-2.5e-06,1,1,0,X
-2.45e-06,1,1,0,X
-2.4e-06,1,1,0,X
-2.35e-06,1,1,0,X
-2.3e-06,1,1,0,X
-2.25e-06,1,1,0,X
-2.2e-06,1,1,0,X
-2.15e-06,1,1,0,X
-2.1e-06,1,1,0,X
-2.05e-06,1,1,0,X
-2e-06,1,1,0,X
-1.95e-06,1,1,0,X
-1.9e-06,1,1,0,X
-1.85e-06,1,1,0,X
-1.8e-06,1,1,0,X
-1.75e-06,1,1,0,X
-1.7e-06,1,1,0,X
-1.65e-06,1,1,0,X
-1.6e-06,1,1,0,X
-1.55e-06,1,1,0,X
-1.5e-06,1,1,0,X
-1.45e-06,1,1,0,X
-1.4e-06,1,1,0,X
-1.35e-06,1,1,0,X
-1.3e-06,1,1,0,X
-1.25e-06,1,1,0,X
-1.2e-06,1,1,0,X
-1.15e-06,1,1,0,X
-1.1e-06,1,1,0,X
-1.05e-06,1,1,0,X
-1e-06,1,1,0,X
-9.5e-07,1,1,0,X
-9e-07,1,1,0,X
-8.5e-07,1,1,0,X
-8e-07,1,1,0,X
-7.5e-07,1,1,0,X
-7e-07,1,1,0,X
-6.5e-07,1,1,0,X
-6e-07,1,1,0,X
-5.5e-07,1,1,0,X
-5e-07,1,1,0,X
-4.5e-07,1,1,0,X
-4e-07,1,1,0,X
-3.5e-07,1,1,0,X
-3e-07,1,1,0,X
-2.5e-07,1,1,0,X
-2e-07,1,1,0,X
-1.5e-07,1,1,0,X
-1e-07,1,1,0,X
-5e-08,1,1,0,X
0,0,1,0,X
5e-08,0,1,0,X
1e-07,0,1,0,X
1.5e-07,0,1,0,X
2e-07,0,1,0,X
2.5e-07,0,1,0,X
3e-07,0,1,0,X
3.5e-07,0,1,0,X
4e-07,0,1,0,X
4.5e-07,0,1,0,X
5e-07,0,1,0,X
5.5e-07,0,1,0,X
6e-07,0,1,0,X
6.5e-07,0,1,0,X
7e-07,0,1,0,X
7.5e-07,0,1,0,X
8e-07,0,1,0,X
8.5e-07,0,1,0,X
9e-07,0,1,0,X
9.5e-07,0,1,0,X
1e-06,0,1,0,X
1.05e-06,0,1,0,X
1.1e-06,0,1,0,X
1.15e-06,0,1,0,X
1.2e-06,0,1,0,X
1.25e-06,0,1,0,X
1.3e-06,0,1,0,X
1.35e-06,0,1,0,X
1.4e-06,0,1,0,X
1.45e-06,0,1,0,X
1.5e-06,0,0,0,X
1.55e-06,0,0,0,X
1.6e-06,0,0,0,X
1.65e-06,0,0,0,X
1.7e-06,0,0,0,X
1.75e-06,0,0,0,X
1.8e-06,0,0,0,X
1.85e-06,0,0,0,X
1.9e-06,0,0,0,X
1.95e-06,0,0,0,X
2e-06,0,0,1,h15
2.05e-06,0,0,1,h15
2.1e-06,0,0,1,h15
2.15e-06,0,0,1,h15
2.2e-06,0,0,1,h15
2.25e-06,0,0,1,h15
2.3e-06,0,0,1,h15
2.35e-06,0,0,1,h15
2.4e-06,0,0,1,h15
2.45e-06,0,0,1,h15
2.5e-06,0,0,0,h15
2.55e-06,0,0,0,h15
2.6e-06,0,0,0,h15
2.65e-06,0,0,0,h15
2.7e-06,0,0,0,h15
2.75e-06,0,0,0,h15
2.8e-06,0,0,0,h15
2.85e-06,0,0,0,h15
2.9e-06,0,0,0,h15
2.95e-06,0,0,0,h15
3e-06,0,0,1,h15
3.05e-06,0,0,1,h15
3.1e-06,0,0,1,h15
3.15e-06,0,0,1,h15
3.2e-06,0,0,1,h15
3.25e-06,0,0,1,h15
3.3e-06,0,0,1,h15
3.35e-06,0,0,1,h15
3.4e-06,0,0,1,h15
3.45e-06,0,0,1,h15
3.5e-06,0,0,0,h15
3.55e-06,0,0,0,h15
3.6e-06,0,0,0,h15
3.65e-06,0,0,0,h15
3.7e-06,0,0,0,h15
3.75e-06,0,0,0,h15
3.8e-06,0,0,0,h15
3.85e-06,0,0,0,h15
3.9e-06,0,0,0,h15
3.95e-06,0,0,0,h15
4e-06,0,0,1,h15
4.05e-06,0,0,1,h15
4.1e-06,0,0,1,h15
4.15e-06,0,0,1,h15
4.2e-06,0,0,1,h15
4.25e-06,0,0,1,h15
4.3e-06,0,0,1,h15
4.35e-06,0,0,1,h15
4.4e-06,0,0,1,h15
4.45e-06,0,0,1,h15
4.5e-06,0,1,0,h15
4.55e-06,0,1,0,h15
4.6e-06,0,1,0,h15
4.65e-06,0,1,0,h15
4.7e-06,0,1,0,h15
4.75e-06,0,1,0,h15
4.8e-06,0,1,0,h15
4.85e-06,0,1,0,h15
4.9e-06,0,1,0,h15
4.95e-06,0,1,0,h15
5e-06,0,1,1,h15
5.05e-06,0,1,1,h15
5.1e-06,0,1,1,h15
5.15e-06,0,1,1,h15
5.2e-06,0,1,1,h15
5.25e-06,0,1,1,h15
5.3e-06,0,1,1,h15
5.35e-06,0,1,1,h15
5.4e-06,0,1,1,h15
5.45e-06,0,1,1,h15
5.5e-06,0,0,0,h15
5.55e-06,0,0,0,h15
5.6e-06,0,0,0,h15
5.65e-06,0,0,0,h15
5.7e-06,0,0,0,h15
5.75e-06,0,0,0,h15
5.8e-06,0,0,0,h15
5.85e-06,0,0,0,h15
5.9e-06,0,0,0,h15
5.95e-06,0,0,0,h15
6e-06,0,0,1,h15
6.05e-06,0,0,1,h15
6.1e-06,0,0,1,h15
6.15e-06,0,0,1,h15
6.2e-06,0,0,1,h15
6.25e-06,0,0,1,h15
6.3e-06,0,0,1,h15
6.35e-06,0,0,1,h15
6.4e-06,0,0,1,h15
6.45e-06,0,0,1,h15
6.5e-06,0,1,0,h15
6.55e-06,0,1,0,h15
6.6e-06,0,1,0,h15
6.65e-06,0,1,0,h15
6.7e-06,0,1,0,h15
6.75e-06,0,1,0,h15
6.8e-06,0,1,0,h15
6.85e-06,0,1,0,h15
6.9e-06,0,1,0,h15
6.95e-06,0,1,0,h15
7e-06,0,1,1,h15
7.05e-06,0,1,1,h15
7.1e-06,0,1,1,h15
7.15e-06,0,1,1,h15
7.2e-06,0,1,1,h15
7.25e-06,0,1,1,h15
7.3e-06,0,1,1,h15
7.35e-06,0,1,1,h15
7.4e-06,0,1,1,h15
7.45e-06,0,1,1,h15
7.5e-06,0,0,0,h15
7.55e-06,0,0,0,h15
7.6e-06,0,0,0,h15
7.65e-06,0,0,0,h15
7.7e-06,0,0,0,h15
7.75e-06,0,0,0,h15
7.8e-06,0,0,0,h15
7.85e-06,0,0,0,h15
7.9e-06,0,0,0,h15
7.95e-06,0,0,0,h15
8e-06,0,0,1,h15
8.05e-06,0,0,1,h15
8.1e-06,0,0,1,h15
8.15e-06,0,0,1,h15
8.2e-06,0,0,1,h15
8.25e-06,0,0,1,h15
8.3e-06,0,0,1,h15
8.35e-06,0,0,1,h15
8.4e-06,0,0,1,h15
8.45e-06,0,0,1,h15
8.5e-06,0,1,0,h15
8.55e-06,0,1,0,h15
8.6e-06,0,1,0,h15
8.65e-06,0,1,0,h15
8.7e-06,0,1,0,h15
8.75e-06,0,1,0,h15
8.8e-06,0,1,0,h15
8.85e-06,0,1,0,h15
8.9e-06,0,1,0,h15
8.95e-06,0,1,0,h15
9e-06,0,1,1,h15
9.05e-06,0,1,1,h15
9.1e-06,0,1,1,h15
9.15e-06,0,1,1,h15
9.2e-06,0,1,1,h15
9.25e-06,0,1,1,h15
9.3e-06,0,1,1,h15
9.35e-06,0,1,1,h15
9.4e-06,0,1,1,h15
9.45e-06,0,1,1,h15
9.5e-06,0,0,0,h59
9.55e-06,0,0,0,h59
9.6e-06,0,0,0,h59
9.65e-06,0,0,0,h59
9.7e-06,0,0,0,h59
9.75e-06,0,0,0,h59
9.8e-06,0,0,0,h59
9.85e-06,0,0,0,h59
9.9e-06,0,0,0,h59
9.95e-06,0,0,0,h59
1e-05,0,0,0,h59
1.005e-05,0,0,0,h59
1.01e-05,0,0,0,h59
1.015e-05,0,0,0,h59
1.02e-05,0,0,0,h59
1.025e-05,0,0,0,h59
1.03e-05,0,0,0,h59
1.035e-05,0,0,0,h59
1.04e-05,0,0,0,h59
1.045e-05,0,0,0,h59
1.05e-05,0,0,1,h59
1.055e-05,0,0,1,h59
1.06e-05,0,0,1,h59
1.065e-05,0,0,1,h59
1.07e-05,0,0,1,h59
1.075e-05,0,0,1,h59
1.08e-05,0,0,1,h59
1.085e-05,0,0,1,h59
1.09e-05,0,0,1,h59
1.095e-05,0,0,1,h59
1.1e-05,0,1,0,h59
1.105e-05,0,1,0,h59
1.11e-05,0,1,0,h59
1.115e-05,0,1,0,h59
1.12e-05,0,1,0,h59
1.125e-05,0,1,0,h59
1.13e-05,0,1,0,h59
1.135e-05,0,1,0,h59
1.14e-05,0,1,0,h59
1.145e-05,0,1,0,h59
1.15e-05,0,1,1,h59
1.155e-05,0,1,1,h59
1.16e-05,0,1,1,h59
1.165e-05,0,1,1,h59
1.17e-05,0,1,1,h59
1.175e-05,0,1,1,h59
1.18e-05,0,1,1,h59
1.185e-05,0,1,1,h59
1.19e-05,0,1,1,h59
1.195e-05,0,1,1,h59
1.2e-05,0,0,0,h59
1.205e-05,0,0,0,h59
1.21e-05,0,0,0,h59
1.215e-05,0,0,0,h59
1.22e-05,0,0,0,h59
1.225e-05,0,0,0,h59
1.23e-05,0,0,0,h59
1.235e-05,0,0,0,h59
1.24e-05,0,0,0,h59
1.245e-05,0,0,0,h59
1.25e-05,0,0,1,h59
1.255e-05,0,0,1,h59
1.26e-05,0,0,1,h59
1.265e-05,0,0,1,h59
1.27e-05,0,0,1,h59
1.275e-05,0,0,1,h59
1.28e-05,0,0,1,h59
1.285e-05,0,0,1,h59
1.29e-05,0,0,1,h59
1.295e-05,0,0,1,h59
1.3e-05,0,1,0,h59
1.305e-05,0,1,0,h59
1.31e-05,0,1,0,h59
1.315e-05,0,1,0,h59
1.32e-05,0,1,0,h59
1.325e-05,0,1,0,h59
1.33e-05,0,1,0,h59
1.335e-05,0,1,0,h59
1.34e-05,0,1,0,h59
1.345e-05,0,1,0,h59
1.35e-05,0,1,1,h59
1.355e-05,0,1,1,h59
1.36e-05,0,1,1,h59
1.365e-05,0,1,1,h59
1.37e-05,0,1,1,h59
1.375e-05,0,1,1,h59
1.38e-05,0,1,1,h59
1.385e-05,0,1,1,h59
1.39e-05,0,1,1,h59
1.395e-05,0,1,1,h59
1.4e-05,0,1,0,h59
1.405e-05,0,1,0,h59
1.41e-05,0,1,0,h59
1.415e-05,0,1,0,h59
1.42e-05,0,1,0,h59
1.425e-05,0,1,0,h59
1.43e-05,0,1,0,h59
1.435e-05,0,1,0,h59
1.44e-05,0,1,0,h59
1.445e-05,0,1,0,h59
1.45e-05,0,1,1,h59
1.455e-05,0,1,1,h59
1.46e-05,0,1,1,h59
1.465e-05,0,1,1,h59
1.47e-05,0,1,1,h59
1.475e-05,0,1,1,h59
1.48e-05,0,1,1,h59
1.485e-05,0,1,1,h59
1.49e-05,0,1,1,h59
1.495e-05,0,1,1,h59
1.5e-05,0,0,0,h59
1.505e-05,0,0,0,h59
1.51e-05,0,0,0,h59
1.515e-05,0,0,0,h59
1.52e-05,0,0,0,h59
1.525e-05,0,0,0,h59
1.53e-05,0,0,0,h59
1.535e-05,0,0,0,h59
1.54e-05,0,0,0,h59
1.545e-05,0,0,0,h59
1.55e-05,0,0,1,h59
1.555e-05,0,0,1,h59
1.56e-05,0,0,1,h59
1.565e-05,0,0,1,h59
1.57e-05,0,0,1,h59
1.575e-05,0,0,1,h59
1.58e-05,0,0,1,h59
1.585e-05,0,0,1,h59
1.59e-05,0,0,1,h59
1.595e-05,0,0,1,h59
1.6e-05,0,0,0,h59
1.605e-05,0,0,0,h59
1.61e-05,0,0,0,h59
1.615e-05,0,0,0,h59
1.62e-05,0,0,0,h59
1.625e-05,0,0,0,h59
1.63e-05,0,0,0,h59
1.635e-05,0,0,0,h59
1.64e-05,0,0,0,h59
1.645e-05,0,0,0,h59
1.65e-05,0,0,1,h59
1.655e-05,0,0,1,h59
1.66e-05,0,0,1,h59
1.665e-05,0,0,1,h59
1.67e-05,0,0,1,h59
1.675e-05,0,0,1,h59
1.68e-05,0,0,1,h59
1.685e-05,0,0,1,h59
1.69e-05,0,0,1,h59
1.695e-05,0,0,1,h59
1.7e-05,0,1,0,h59
1.705e-05,0,1,0,h59
1.71e-05,0,1,0,h59
1.715e-05,0,1,0,h59
1.72e-05,0,1,0,h59
1.725e-05,0,1,0,h59
1.73e-05,0,1,0,h59
1.735e-05,0,1,0,h59
1.74e-05,0,1,0,h59
1.745e-05,0,1,0,h59
1.75e-05,0,1,1,h59
1.755e-05,0,1,1,h59
1.76e-05,0,1,1,h59
1.765e-05,0,1,1,h59
1.77e-05,0,1,1,h59
1.775e-05,0,1,1,h59
1.78e-05,0,1,1,h59
1.785e-05,0,1,1,h59
1.79e-05,0,1,1,h59
1.795e-05,0,1,1,h59
1.8e-05,0,0,0,h65
1.805e-05,0,0,0,h65
1.81e-05,0,0,0,h65
1.815e-05,0,0,0,h65
1.82e-05,0,0,0,h65
1.825e-05,0,0,0,h65
1.83e-05,0,0,0,h65
1.835e-05,0,0,0,h65
1.84e-05,0,0,0,h65
1.845e-05,0,0,0,h65
1.85e-05,0,0,0,h65
1.855e-05,0,0,0,h65
1.86e-05,0,0,0,h65
1.865e-05,0,0,0,h65
1.87e-05,0,0,0,h65
1.875e-05,0,0,0,h65
1.88e-05,0,0,0,h65
1.885e-05,0,0,0,h65
1.89e-05,0,0,0,h65
1.895e-05,0,0,0,h65
1.9e-05,0,0,1,h65
1.905e-05,0,0,1,h65
1.91e-05,0,0,1,h65
1.915e-05,0,0,1,h65
1.92e-05,0,0,1,h65
1.925e-05,0,0,1,h65
1.93e-05,0,0,1,h65
1.935e-05,0,0,1,h65
1.94e-05,0,0,1,h65
1.945e-05,0,0,1,h65
1.95e-05,0,1,0,h65
1.955e-05,0,1,0,h65
1.96e-05,0,1,0,h65
1.965e-05,0,1,0,h65
1.97e-05,0,1,0,h65
1.975e-05,0,1,0,h65
1.98e-05,0,1,0,h65
1.985e-05,0,1,0,h65
1.99e-05,0,1,0,h65
1.995e-05,0,1,0,h65
2e-05,0,1,1,h65
2.005e-05,0,1,1,h65
2.01e-05,0,1,1,h65
2.015e-05,0,1,1,h65
2.02e-05,0,1,1,h65
2.025e-05,0,1,1,h65
2.03e-05,0,1,1,h65
2.035e-05,0,1,1,h65
2.04e-05,0,1,1,h65
2.045e-05,0,1,1,h65
2.05e-05,0,1,0,h65
2.055e-05,0,1,0,h65
2.06e-05,0,1,0,h65
2.065e-05,0,1,0,h65
2.07e-05,0,1,0,h65
2.075e-05,0,1,0,h65
2.08e-05,0,1,0,h65
2.085e-05,0,1,0,h65
2.09e-05,0,1,0,h65
2.095e-05,0,1,0,h65
2.1e-05,0,1,1,h65
2.105e-05,0,1,1,h65
2.11e-05,0,1,1,h65
2.115e-05,0,1,1,h65
2.12e-05,0,1,1,h65
2.125e-05,0,1,1,h65
2.13e-05,0,1,1,h65
2.135e-05,0,1,1,h65
2.14e-05,0,1,1,h65
2.145e-05,0,1,1,h65
2.15e-05,0,0,0,h65
2.155e-05,0,0,0,h65
2.16e-05,0,0,0,h65
2.165e-05,0,0,0,h65
2.17e-05,0,0,0,h65
2.175e-05,0,0,0,h65
2.18e-05,0,0,0,h65
2.185e-05,0,0,0,h65
2.19e-05,0,0,0,h65
2.195e-05,0,0,0,h65
2.2e-05,0,0,1,h65
2.205e-05,0,0,1,h65
2.21e-05,0,0,1,h65
2.215e-05,0,0,1,h65
2.22e-05,0,0,1,h65
2.225e-05,0,0,1,h65
2.23e-05,0,0,1,h65
2.235e-05,0,0,1,h65
2.24e-05,0,0,1,h65
2.245e-05,0,0,1,h65
2.25e-05,0,0,0,h65
2.255e-05,0,0,0,h65
2.26e-05,0,0,0,h65
2.265e-05,0,0,0,h65
2.27e-05,0,0,0,h65
2.275e-05,0,0,0,h65
2.28e-05,0,0,0,h65
2.285e-05,0,0,0,h65
2.29e-05,0,0,0,h65
2.295e-05,0,0,0,h65
2.3e-05,0,0,1,h65
2.305e-05,0,0,1,h65
2.31e-05,0,0,1,h65
2.315e-05,0,0,1,h65
2.32e-05,0,0,1,h65
2.325e-05,0,0,1,h65
2.33e-05,0,0,1,h65
2.335e-05,0,0,1,h65
2.34e-05,0,0,1,h65
2.345e-05,0,0,1,h65
2.35e-05,0,1,0,h65
2.355e-05,0,1,0,h65
2.36e-05,0,1,0,h65
2.365e-05,0,1,0,h65
2.37e-05,0,1,0,h65
2.375e-05,0,1,0,h65
2.38e-05,0,1,0,h65
2.385e-05,0,1,0,h65
2.39e-05,0,1,0,h65
2.395e-05,0,1,0,h65
2.4e-05,0,1,1,h65
2.405e-05,0,1,1,h65
2.41e-05,0,1,1,h65
2.415e-05,0,1,1,h65
2.42e-05,0,1,1,h65
2.425e-05,0,1,1,h65
2.43e-05,0,1,1,h65
2.435e-05,0,1,1,h65
2.44e-05,0,1,1,h65
2.445e-05,0,1,1,h65
2.45e-05,0,0,0,h65
2.455e-05,0,0,0,h65
2.46e-05,0,0,0,h65
2.465e-05,0,0,0,h65
2.47e-05,0,0,0,h65
2.475e-05,0,0,0,h65
2.48e-05,0,0,0,h65
2.485e-05,0,0,0,h65
2.49e-05,0,0,0,h65
2.495e-05,0,0,0,h65
2.5e-05,0,0,1,h65
2.505e-05,0,0,1,h65
2.51e-05,0,0,1,h65
2.515e-05,0,0,1,h65
2.52e-05,0,0,1,h65
2.525e-05,0,0,1,h65
2.53e-05,0,0,1,h65
2.535e-05,0,0,1,h65
2.54e-05,0,0,1,h65
2.545e-05,0,0,1,h65
2.55e-05,0,1,0,h65
2.555e-05,0,1,0,h65
2.56e-05,0,1,0,h65
2.565e-05,0,1,0,h65
2.57e-05,0,1,0,h65
2.575e-05,0,1,0,h65
2.58e-05,0,1,0,h65
2.585e-05,0,1,0,h65
2.59e-05,0,1,0,h65
2.595e-05,0,1,0,h65
2.6e-05,0,1,1,h65
2.605e-05,0,1,1,h65
2.61e-05,0,1,1,h65
2.615e-05,0,1,1,h65
2.62e-05,0,1,1,h65
2.625e-05,0,1,1,h65
2.63e-05,0,1,1,h65
2.635e-05,0,1,1,h65
2.64e-05,0,1,1,h65
2.645e-05,0,1,1,h65
2.65e-05,0,0,0,h68
2.655e-05,0,0,0,h68
2.66e-05,0,0,0,h68
2.665e-05,0,0,0,h68
2.67e-05,0,0,0,h68
2.675e-05,0,0,0,h68
2.68e-05,0,0,0,h68
2.685e-05,0,0,0,h68
2.69e-05,0,0,0,h68
2.695e-05,0,0,0,h68
2.7e-05,0,0,0,h68
2.705e-05,0,0,0,h68
2.71e-05,0,0,0,h68
2.715e-05,0,0,0,h68
2.72e-05,0,0,0,h68
2.725e-05,0,0,0,h68
2.73e-05,0,0,0,h68
2.735e-05,0,0,0,h68
2.74e-05,0,0,0,h68
2.745e-05,0,0,0,h68
2.75e-05,0,0,1,h68
2.755e-05,0,0,1,h68
2.76e-05,0,0,1,h68
2.765e-05,0,0,1,h68
2.77e-05,0,0,1,h68
2.775e-05,0,0,1,h68
2.78e-05,0,0,1,h68
2.785e-05,0,0,1,h68
2.79e-05,0,0,1,h68
2.795e-05,0,0,1,h68
2.8e-05,0,1,0,h68
2.805e-05,0,1,0,h68
2.81e-05,0,1,0,h68
2.815e-05,0,1,0,h68
2.82e-05,0,1,0,h68
2.825e-05,0,1,0,h68
2.83e-05,0,1,0,h68
2.835e-05,0,1,0,h68
2.84e-05,0,1,0,h68
2.845e-05,0,1,0,h68
2.85e-05,0,1,1,h68
2.855e-05,0,1,1,h68
2.86e-05,0,1,1,h68
2.865e-05,0,1,1,h68
2.87e-05,0,1,1,h68
2.875e-05,0,1,1,h68
2.88e-05,0,1,1,h68
2.885e-05,0,1,1,h68
2.89e-05,0,1,1,h68
2.895e-05,0,1,1,h68
2.9e-05,0,1,0,h68
2.905e-05,0,1,0,h68
2.91e-05,0,1,0,h68
2.915e-05,0,1,0,h68
2.92e-05,0,1,0,h68
2.925e-05,0,1,0,h68
2.93e-05,0,1,0,h68
2.935e-05,0,1,0,h68
2.94e-05,0,1,0,h68
2.945e-05,0,1,0,h68
2.95e-05,0,1,1,h68
2.955e-05,0,1,1,h68
2.96e-05,0,1,1,h68
2.965e-05,0,1,1,h68
2.97e-05,0,1,1,h68
2.975e-05,0,1,1,h68
2.98e-05,0,1,1,h68
2.985e-05,0,1,1,h68
2.99e-05,0,1,1,h68
2.995e-05,0,1,1,h68
3e-05,0,0,0,h68
3.005e-05,0,0,0,h68
3.01e-05,0,0,0,h68
3.015e-05,0,0,0,h68
3.02e-05,0,0,0,h68
3.025e-05,0,0,0,h68
3.03e-05,0,0,0,h68
3.035e-05,0,0,0,h68
3.04e-05,0,0,0,h68
3.045e-05,0,0,0,h68
3.05e-05,0,0,1,h68
3.055e-05,0,0,1,h68
3.06e-05,0,0,1,h68
3.065e-05,0,0,1,h68
3.07e-05,0,0,1,h68
3.075e-05,0,0,1,h68
3.08e-05,0,0,1,h68
3.085e-05,0,0,1,h68
3.09e-05,0,0,1,h68
3.095e-05,0,0,1,h68
3.1e-05,0,1,0,h68
3.105e-05,0,1,0,h68
3.11e-05,0,1,0,h68
3.115e-05,0,1,0,h68
3.12e-05,0,1,0,h68
3.125e-05,0,1,0,h68
3.13e-05,0,1,0,h68
3.135e-05,0,1,0,h68
3.14e-05,0,1,0,h68
3.145e-05,0,1,0,h68
3.15e-05,0,1,1,h68
3.155e-05,0,1,1,h68
3.16e-05,0,1,1,h68
3.165e-05,0,1,1,h68
3.17e-05,0,1,1,h68
3.175e-05,0,1,1,h68
3.18e-05,0,1,1,h68
3.185e-05,0,1,1,h68
3.19e-05,0,1,1,h68
3.195e-05,0,1,1,h68
3.2e-05,0,0,0,h68
3.205e-05,0,0,0,h68
3.21e-05,0,0,0,h68
3.215e-05,0,0,0,h68
3.22e-05,0,0,0,h68
3.225e-05,0,0,0,h68
3.23e-05,0,0,0,h68
3.235e-05,0,0,0,h68
3.24e-05,0,0,0,h68
3.245e-05,0,0,0,h68
3.25e-05,0,0,1,h68
3.255e-05,0,0,1,h68
3.26e-05,0,0,1,h68
3.265e-05,0,0,1,h68
3.27e-05,0,0,1,h68
3.275e-05,0,0,1,h68
3.28e-05,0,0,1,h68
3.285e-05,0,0,1,h68
3.29e-05,0,0,1,h68
3.295e-05,0,0,1,h68
3.3e-05,0,0,0,h68
3.305e-05,0,0,0,h68
3.31e-05,0,0,0,h68
3.315e-05,0,0,0,h68
3.32e-05,0,0,0,h68
3.325e-05,0,0,0,h68
3.33e-05,0,0,0,h68
3.335e-05,0,0,0,h68
3.34e-05,0,0,0,h68
3.345e-05,0,0,0,h68
3.35e-05,0,0,1,h68
3.355e-05,0,0,1,h68
3.36e-05,0,0,1,h68
3.365e-05,0,0,1,h68
3.37e-05,0,0,1,h68
3.375e-05,0,0,1,h68
3.38e-05,0,0,1,h68
3.385e-05,0,0,1,h68
3.39e-05,0,0,1,h68
3.395e-05,0,0,1,h68
3.4e-05,0,0,0,h68
3.405e-05,0,0,0,h68
3.41e-05,0,0,0,h68
3.415e-05,0,0,0,h68
3.42e-05,0,0,0,h68
3.425e-05,0,0,0,h68
3.43e-05,0,0,0,h68
3.435e-05,0,0,0,h68
3.44e-05,0,0,0,h68
3.445e-05,0,0,0,h68
3.45e-05,0,0,1,h68
3.455e-05,0,0,1,h68
3.46e-05,0,0,1,h68
3.465e-05,0,0,1,h68
3.47e-05,0,0,1,h68
3.475e-05,0,0,1,h68
3.48e-05,0,0,1,h68
3.485e-05,0,0,1,h68
3.49e-05,0,0,1,h68
3.495e-05,0,0,1,h68
3.5e-05,0,1,0,X
3.505e-05,0,1,0,X
3.51e-05,0,1,0,X
3.515e-05,0,1,0,X
3.52e-05,0,1,0,X
3.525e-05,0,1,0,X
3.53e-05,0,1,0,X
3.535e-05,0,1,0,X
3.54e-05,0,1,0,X
3.545e-05,0,1,0,X
3.55e-05,0,1,0,X
3.555e-05,0,1,0,X
3.56e-05,0,1,0,X
3.565e-05,0,1,0,X
3.57e-05,0,1,0,X
3.575e-05,0,1,0,X
3.58e-05,0,1,0,X
3.585e-05,0,1,0,X
3.59e-05,0,1,0,X
3.595e-05,0,1,0,X
3.6e-05,0,1,0,X
3.605e-05,0,1,0,X
3.61e-05,0,1,0,X
3.615e-05,0,1,0,X
3.62e-05,1,1,0,X
3.625e-05,1,1,0,X
3.63e-05,1,1,0,X
3.635e-05,1,1,0,X
3.64e-05,1,1,0,X
3.645e-05,1,1,0,X
3.65e-05,1,1,0,X
3.655e-05,1,1,0,X
3.66e-05,1,1,0,X
3.665e-05,1,1,0,X
3.67e-05,1,1,0,X
3.675e-05,1,1,0,X
3.68e-05,1,1,0,X
3.685e-05,1,1,0,X
3.69e-05,1,1,0,X
3.695e-05,1,1,0,X
3.7e-05,1,1,0,X
3.705e-05,1,1,0,X
3.71e-05,1,1,0,X
3.715e-05,1,1,0,X
3.72e-05,1,1,0,X
3.725e-05,1,1,0,X
3.73e-05,1,1,0,X
3.735e-05,1,1,0,X
3.74e-05,1,1,0,X
3.745e-05,1,1,0,X
3.75e-05,1,1,0,X
3.755e-05,1,1,0,X
3.76e-05,1,1,0,X
3.765e-05,1,1,0,X
3.77e-05,1,1,0,X
3.775e-05,1,1,0,X
3.78e-05,1,1,0,X
3.785e-05,1,1,0,X
3.79e-05,1,1,0,X
3.795e-05,1,1,0,X
3.8e-05,1,1,0,X
3.805e-05,1,1,0,X
3.81e-05,1,1,0,X
3.815e-05,1,1,0,X
3.82e-05,1,1,0,X
3.825e-05,1,1,0,X
3.83e-05,1,1,0,X
3.835e-05,1,1,0,X
3.84e-05,1,1,0,X
3.845e-05,1,1,0,X
3.85e-05,1,1,0,X
3.855e-05,1,1,0,X
3.86e-05,1,1,0,X
3.865e-05,1,1,0,X
3.87e-05,1,1,0,X
3.875e-05,1,1,0,X
3.88e-05,1,1,0,X
3.885e-05,1,1,0,X
3.89e-05,1,1,0,X
3.895e-05,1,1,0,X
3.9e-05,1,1,0,X
3.905e-05,1,1,0,X
3.91e-05,1,1,0,X
3.915e-05,1,1,0,X
3.92e-05,1,1,0,X
3.925e-05,1,1,0,X
3.93e-05,1,1,0,X
3.935e-05,1,1,0,X
3.94e-05,1,1,0,X
3.945e-05,1,1,0,X
3.95e-05,1,1,0,X
3.955e-05,1,1,0,X
3.96e-05,1,1,0,X
3.965e-05,1,1,0,X
3.97e-05,1,1,0,X
3.975e-05,1,1,0,X
3.98e-05,1,1,0,X
3.985e-05,1,1,0,X
3.99e-05,1,1,0,X
3.995e-05,1,1,0,X
4e-05,1,1,0,X
4.005e-05,1,1,0,X
4.01e-05,1,1,0,X
4.015e-05,1,1,0,X
4.02e-05,1,1,0,X
4.025e-05,1,1,0,X
4.03e-05,1,1,0,X
4.035e-05,1,1,0,X
4.04e-05,1,1,0,X
4.045e-05,1,1,0,X
4.05e-05,1,1,0,X
4.055e-05,1,1,0,X
4.06e-05,1,1,0,X
4.065e-05,1,1,0,X
4.07e-05,1,1,0,X
4.075e-05,1,1,0,X
4.08e-05,1,1,0,X
4.085e-05,1,1,0,X
4.09e-05,1,1,0,X
4.095e-05,1,1,0,X
4.1e-05,1,1,0,X
4.105e-05,1,1,0,X
4.11e-05,1,1,0,X
4.115e-05,1,1,0,X
4.12e-05,1,1,0,X
4.125e-05,1,1,0,X
4.13e-05,1,1,0,X
4.135e-05,1,1,0,X
4.14e-05,1,1,0,X
4.145e-05,1,1,0,X
4.15e-05,1,1,0,X
4.155e-05,1,1,0,X
4.16e-05,1,1,0,X
4.165e-05,1,1,0,X
4.17e-05,1,1,0,X
4.175e-05,1,1,0,X
4.18e-05,1,1,0,X
4.185e-05,1,1,0,X
4.19e-05,1,1,0,X
4.195e-05,1,1,0,X
4.2e-05,1,1,0,X
4.205e-05,1,1,0,X
4.21e-05,1,1,0,X
4.215e-05,1,1,0,X
4.22e-05,1,1,0,X
4.225e-05,1,1,0,X
4.23e-05,1,1,0,X
4.235e-05,1,1,0,X
4.24e-05,1,1,0,X
4.245e-05,1,1,0,X
4.25e-05,1,1,0,X
4.255e-05,1,1,0,X
4.26e-05,1,1,0,X
4.265e-05,1,1,0,X
4.27e-05,1,1,0,X
4.275e-05,1,1,0,X
4.28e-05,1,1,0,X
4.285e-05,1,1,0,X
4.29e-05,1,1,0,X
4.295e-05,1,1,0,X
4.3e-05,1,1,0,X
4.305e-05,1,1,0,X
4.31e-05,1,1,0,X
4.315e-05,1,1,0,X
4.32e-05,1,1,0,X
4.325e-05,1,1,0,X
4.33e-05,1,1,0,X
4.335e-05,1,1,0,X
4.34e-05,1,1,0,X
4.345e-05,1,1,0,X
4.35e-05,1,1,0,X
4.355e-05,1,1,0,X
4.36e-05,1,1,0,X
4.365e-05,1,1,0,X
4.37e-05,1,1,0,X
4.375e-05,1,1,0,X
4.38e-05,1,1,0,X
4.385e-05,1,1,0,X
4.39e-05,1,1,0,X
4.395e-05,1,1,0,X
4.4e-05,1,1,0,X
4.405e-05,1,1,0,X
4.41e-05,1,1,0,X
